! SIEMENS Small Signal Semiconductors
! BFG196
! Si NPN RF Bipolar Junction Transistor in SOT223
! VCE = 0.75 V     IC = 70 mA     
! Common Emitter S-Parameters:                       August  1996
# GHz  S  MA  R  50
!  f         S11            S21            S12            S22
! GHz     MAG   ANG      MAG   ANG      MAG   ANG      MAG   ANG
 0.010  0.2730 -106.3  65.724  157.3  0.0058   70.4  0.6258  -34.3
 0.020  0.4450 -127.5  54.563  140.4  0.0097   61.1  0.5697  -63.1
 0.050  0.6361 -154.1  31.358  114.4  0.0167   53.3  0.4443 -112.1
 0.100  0.7024 -169.0  17.074  100.2  0.0239   58.4  0.3913 -144.1
 0.150  0.7122 -175.9  11.544   93.0  0.0308   61.0  0.3833 -158.0
 0.200  0.7191 -179.8   8.750   88.6  0.0382   64.2  0.3762 -165.5
 0.250  0.7236  176.5   7.003   85.0  0.0462   65.6  0.3789 -171.6
 0.300  0.7292  173.8   5.870   81.9  0.0541   65.9  0.3774 -175.3
 0.400  0.7308  168.7   4.429   76.8  0.0696   66.0  0.3820  177.6
 0.500  0.7382  164.3   3.551   71.6  0.0849   64.1  0.3841  172.3
 0.600  0.7381  159.9   2.973   66.9  0.1005   62.3  0.3880  168.1
 0.700  0.7420  155.6   2.557   62.1  0.1152   60.4  0.3936  164.1
 0.800  0.7471  152.0   2.240   57.7  0.1303   57.7  0.4001  159.9
 0.900  0.7445  148.1   2.013   53.6  0.1450   55.3  0.4050  155.9
 1.000  0.7503  144.3   1.822   49.5  0.1584   52.9  0.4110  152.6
 1.100  0.7543  141.3   1.657   45.7  0.1714   50.5  0.4195  149.4
 1.200  0.7625  137.6   1.543   41.7  0.1846   48.1  0.4268  145.8
 1.300  0.7622  134.3   1.431   37.9  0.1969   45.3  0.4337  142.1
 1.400  0.7669  130.9   1.341   34.4  0.2076   42.4  0.4411  139.1
 1.500  0.7695  127.7   1.272   30.5  0.2198   39.5  0.4473  136.3
 1.600  0.7727  124.5   1.188   26.6  0.2322   37.0  0.4539  132.9
 1.700  0.7784  121.6   1.117   23.0  0.2429   34.7  0.4615  129.5
 1.800  0.7867  118.6   1.084   20.2  0.2534   32.0  0.4691  126.4
 1.900  0.7870  115.9   1.039   16.8  0.2630   29.2  0.4779  123.8
 2.000  0.7882  112.9   0.995   13.7  0.2725   26.3  0.4888  120.8
 2.200  0.7918  107.4   0.919    7.1  0.2916   21.0  0.4997  114.7
 2.400  0.8038  102.2   0.853    0.1  0.3076   16.3  0.5189  108.4
 2.600  0.8085   97.4   0.818   -5.3  0.3240   11.2  0.5317  102.5
 2.800  0.8161   91.9   0.770  -11.0  0.3408    5.5  0.5478   97.2
 3.000  0.8223   87.5   0.732  -16.6  0.3527    0.7  0.5589   91.1
 3.500  0.8296   76.1   0.649  -28.1  0.3682  -12.6  0.5997   78.0
 4.000  0.8483   67.0   0.581  -38.5  0.3789  -21.9  0.6386   64.9
 4.500  0.8620   58.4   0.528  -48.7  0.3973  -31.3  0.6715   52.5
 5.000  0.8696   50.6   0.507  -56.2  0.4031  -42.1  0.7003   41.4
 5.500  0.8731   43.4   0.477  -64.7  0.4191  -52.6  0.7289   29.8
 6.000  0.8688   36.4   0.461  -73.2  0.4141  -64.5  0.7480   19.1
!
! SIEMENS AG  Semiconductor Group, Munich
