# HZ S MA R 50
5000000             0.92      -47.4     25.96     147.8     0.03      58.6      0.92      -46.3     
10000000            0.81      -80.4     19.77     126.7     0.05      37.7      0.81      -79.2     
15000000            0.75      -101.9    15.25     112.9     0.06      24.4      0.74      -100.3    
20000000            0.71      -116.0    12.10     103.2     0.06      15.8      0.70      -113.5    
25000000            0.70      -125.4    9.87      96.0      0.06      9.2       0.69      -122.9    
30000000            0.69      -131.9    8.28      90.4      0.06      4.0       0.68      -129.5    
35000000            0.69      -136.6    7.08      85.6      0.06      -0.2      0.68      -134.1    
40000000            0.70      -140.1    6.16      81.5      0.06      -3.7      0.68      -137.5    
45000000            0.70      -142.9    5.42      77.7      0.06      -6.7      0.69      -140.3    
50000000            0.71      -145.2    4.82      74.3      0.06      -9.5      0.70      -142.5    
55000000            0.72      -147.1    4.31      71.1      0.05      -11.9     0.71      -144.4    
60000000            0.73      -148.6    3.88      68.2      0.05      -14.1     0.72      -146.0    
65000000            0.74      -149.9    3.52      65.5      0.05      -16.0     0.73      -147.5    
70000000            0.75      -151.1    3.21      63.1      0.05      -17.7     0.74      -148.7    
75000000            0.76      -152.1    2.94      60.8      0.05      -19.3     0.75      -150.0    
80000000            0.77      -153.1    2.71      58.6      0.05      -20.7     0.77      -151.1    
85000000            0.78      -154.2    2.51      56.6      0.04      -22.0     0.78      -152.1    
90000000            0.79      -155.2    2.33      54.5      0.04      -23.2     0.79      -153.2    
95000000            0.80      -156.3    2.16      52.4      0.04      -24.3     0.80      -154.2    
100000000           0.81      -157.3    2.02      50.5      0.04      -25.3     0.81      -155.1    
105000000           0.82      -158.3    1.88      48.6      0.04      -26.1     0.81      -156.0    
110000000           0.82      -159.4    1.76      46.7      0.04      -26.8     0.82      -156.9    
115000000           0.83      -160.3    1.65      45.0      0.03      -27.3     0.83      -157.7    
120000000           0.83      -161.2    1.54      43.4      0.03      -27.5     0.84      -158.5    
125000000           0.84      -161.9    1.45      41.9      0.03      -27.5     0.85      -159.2    
130000000           0.85      -162.7    1.36      40.6      0.03      -27.2     0.85      -159.9    
135000000           0.85      -163.3    1.28      39.3      0.03      -26.6     0.86      -160.7    
140000000           0.86      -163.9    1.21      38.2      0.02      -25.7     0.87      -161.3    
145000000           0.87      -164.4    1.14      37.1      0.02      -24.5     0.87      -162.0    
150000000           0.87      -165.0    1.08      36.1      0.02      -23.0     0.88      -162.6    
155000000           0.88      -165.5    1.03      35.1      0.02      -21.2     0.88      -163.2    
160000000           0.89      -166.1    0.98      34.1      0.02      -18.8     0.89      -163.8    
165000000           0.89      -166.6    0.93      33.2      0.02      -16.0     0.89      -164.4    
170000000           0.90      -167.2    0.89      32.3      0.02      -12.7     0.90      -165.0    
175000000           0.90      -167.9    0.85      31.4      0.01      -8.8      0.90      -165.6    
180000000           0.91      -168.5    0.81      30.5      0.01      -4.2      0.91      -166.1    
185000000           0.91      -169.1    0.78      29.6      0.01      1.1       0.91      -166.7    
190000000           0.91      -169.8    0.74      28.7      0.01      7.1       0.91      -167.2    
195000000           0.91      -170.4    0.71      27.9      0.01      13.8      0.92      -167.8    
200000000           0.92      -170.9    0.68      27.1      0.01      20.8      0.92      -168.3    
205000000           0.92      -171.5    0.65      26.3      0.01      28.0      0.92      -168.8    
210000000           0.92      -172.0    0.63      25.6      0.01      35.1      0.92      -169.3    
215000000           0.92      -172.5    0.60      24.9      0.01      41.7      0.93      -169.7    
220000000           0.92      -173.0    0.58      24.3      0.01      47.8      0.93      -170.2    
225000000           0.92      -173.5    0.55      23.7      0.01      53.2      0.93      -170.6    
230000000           0.92      -173.9    0.53      23.3      0.01      58.0      0.93      -171.1    
235000000           0.93      -174.3    0.51      22.9      0.01      62.2      0.94      -171.5    
240000000           0.93      -174.7    0.49      22.5      0.02      65.7      0.94      -171.9    
245000000           0.93      -175.1    0.47      22.2      0.02      68.8      0.94      -172.3    
250000000           0.94      -175.5    0.46      21.9      0.02      71.5      0.94      -172.7    
255000000           0.94      -175.9    0.44      21.6      0.02      73.7      0.94      -173.1    
260000000           0.94      -176.3    0.43      21.4      0.02      75.7      0.95      -173.5    
265000000           0.95      -176.8    0.41      21.1      0.02      77.3      0.95      -173.8    
270000000           0.95      -177.2    0.40      20.9      0.02      78.6      0.95      -174.2    
275000000           0.95      -177.7    0.39      20.6      0.02      79.7      0.95      -174.6    
280000000           0.95      -178.1    0.38      20.3      0.02      80.6      0.95      -174.9    
285000000           0.95      -178.5    0.37      20.1      0.03      81.4      0.95      -175.3    
290000000           0.95      -178.9    0.36      19.8      0.03      81.9      0.96      -175.6    
295000000           0.95      -179.3    0.34      19.5      0.03      82.5      0.96      -176.0    
300000000           0.95      -179.7    0.33      19.3      0.03      82.9      0.96      -176.3    
305000000           0.95      179.9     0.32      19.1      0.03      83.3      0.96      -176.7    
310000000           0.95      179.6     0.31      19.0      0.03      83.7      0.96      -177.0    
315000000           0.95      179.2     0.31      18.9      0.03      84.1      0.96      -177.3    
320000000           0.95      178.9     0.30      18.9      0.03      84.5      0.96      -177.6    
325000000           0.95      178.6     0.29      19.0      0.04      84.8      0.96      -177.9    
330000000           0.95      178.2     0.28      19.1      0.04      85.1      0.96      -178.2    
335000000           0.95      177.9     0.27      19.1      0.04      85.5      0.96      -178.5    
340000000           0.96      177.6     0.27      19.3      0.04      85.7      0.96      -178.8    
345000000           0.96      177.3     0.26      19.4      0.04      86.0      0.96      -179.1    
350000000           0.96      176.9     0.25      19.5      0.04      86.2      0.97      -179.4    
355000000           0.96      176.5     0.25      19.7      0.04      86.3      0.97      -179.7    
360000000           0.96      176.2     0.24      19.8      0.04      86.5      0.97      -180.0    
365000000           0.97      175.8     0.24      19.9      0.04      86.6      0.97      179.8     
370000000           0.97      175.5     0.23      20.1      0.05      86.7      0.97      179.5     
375000000           0.97      175.1     0.23      20.3      0.05      86.7      0.97      179.2     
380000000           0.97      174.8     0.22      20.5      0.05      86.6      0.97      178.9     
385000000           0.97      174.5     0.22      20.7      0.05      86.6      0.97      178.7     
390000000           0.96      174.1     0.21      21.0      0.05      86.5      0.97      178.4     
395000000           0.96      173.8     0.21      21.3      0.05      86.3      0.97      178.1     
400000000           0.96      173.6     0.20      21.6      0.05      86.2      0.97      177.8     
405000000           0.96      173.3     0.20      21.8      0.05      86.1      0.97      177.6     
410000000           0.96      173.0     0.20      22.1      0.06      86.0      0.97      177.3     
415000000           0.96      172.7     0.19      22.4      0.06      85.9      0.97      177.1     
420000000           0.96      172.5     0.19      22.7      0.06      85.9      0.97      176.8     
425000000           0.96      172.2     0.18      23.1      0.06      85.9      0.97      176.6     
430000000           0.96      171.9     0.18      23.5      0.06      85.9      0.97      176.3     
435000000           0.97      171.6     0.18      23.8      0.06      86.0      0.97      176.1     
440000000           0.97      171.3     0.17      24.4      0.06      86.1      0.97      175.8     
445000000           0.97      171.0     0.17      24.9      0.06      86.2      0.97      175.6     
450000000           0.97      170.6     0.17      25.3      0.06      86.3      0.97      175.3     
455000000           0.97      170.3     0.17      25.8      0.06      86.4      0.97      175.1     
460000000           0.97      170.0     0.16      26.4      0.07      86.4      0.97      174.8     
465000000           0.97      169.7     0.16      27.0      0.07      86.3      0.97      174.6     
470000000           0.97      169.4     0.16      27.5      0.07      86.2      0.97      174.3     
475000000           0.97      169.1     0.16      28.0      0.07      86.0      0.97      174.1     
480000000           0.97      168.8     0.16      28.5      0.07      85.7      0.97      173.9     
485000000           0.97      168.5     0.15      28.9      0.07      85.4      0.97      173.6     
490000000           0.97      168.3     0.15      29.6      0.07      85.2      0.97      173.4     
495000000           0.97      168.0     0.15      30.1      0.07      85.0      0.97      173.2     
500000000           0.97      167.8     0.15      30.6      0.07      84.8      0.97      172.9     
505000000           0.97      167.5     0.15      31.1      0.08      84.6      0.97      172.7     
510000000           0.96      167.3     0.15      31.7      0.08      84.6      0.97      172.5     
515000000           0.96      167.1     0.14      32.2      0.08      84.6      0.97      172.3     
520000000           0.97      166.8     0.14      32.9      0.08      84.6      0.97      172.1     
525000000           0.97      166.5     0.14      33.3      0.08      84.6      0.97      171.8     
530000000           0.97      166.2     0.14      34.1      0.08      84.7      0.97      171.6     
535000000           0.97      165.9     0.14      34.6      0.08      84.7      0.97      171.4     
540000000           0.97      165.6     0.14      35.2      0.08      84.7      0.98      171.2     
545000000           0.97      165.3     0.14      35.9      0.08      84.7      0.98      171.0     
550000000           0.97      165.0     0.14      36.6      0.09      84.7      0.98      170.8     
555000000           0.97      164.7     0.14      37.1      0.09      84.6      0.98      170.5     
560000000           0.97      164.4     0.13      37.9      0.09      84.4      0.98      170.3     
565000000           0.97      164.1     0.13      38.4      0.09      84.2      0.98      170.1     
570000000           0.97      163.8     0.13      39.2      0.09      84.0      0.98      169.9     
575000000           0.97      163.6     0.13      39.7      0.09      83.7      0.98      169.7     
580000000           0.97      163.3     0.13      40.5      0.09      83.5      0.98      169.5     
585000000           0.97      163.1     0.13      40.9      0.09      83.2      0.98      169.3     
590000000           0.96      162.9     0.13      41.4      0.09      83.0      0.98      169.1     
595000000           0.96      162.6     0.13      41.9      0.09      82.8      0.98      168.9     
600000000           0.96      162.4     0.13      42.5      0.10      82.6      0.98      168.6     
605000000           0.96      162.2     0.13      42.9      0.10      82.5      0.97      168.5     
610000000           0.96      161.9     0.13      43.3      0.10      82.5      0.97      168.3     
615000000           0.96      161.6     0.13      43.8      0.10      82.6      0.97      168.0     
620000000           0.96      161.4     0.13      44.3      0.10      82.7      0.97      167.8     
625000000           0.96      161.1     0.13      44.8      0.10      82.8      0.97      167.6     
630000000           0.96      160.8     0.13      45.4      0.10      83.0      0.97      167.4     
635000000           0.97      160.5     0.13      46.1      0.10      83.1      0.97      167.2     
640000000           0.97      160.2     0.13      46.7      0.10      83.2      0.97      167.0     
645000000           0.97      159.9     0.13      47.4      0.11      83.2      0.97      166.8     
650000000           0.97      159.6     0.13      48.2      0.11      83.1      0.97      166.6     
655000000           0.97      159.4     0.13      48.8      0.11      82.8      0.97      166.4     
660000000           0.97      159.1     0.13      49.5      0.11      82.4      0.97      166.2     
665000000           0.96      158.9     0.13      50.0      0.11      82.0      0.97      166.0     
670000000           0.96      158.6     0.13      50.5      0.11      81.5      0.97      165.8     
675000000           0.96      158.4     0.13      50.9      0.11      81.1      0.97      165.6     
680000000           0.96      158.1     0.13      51.2      0.11      80.7      0.97      165.4     
685000000           0.96      157.9     0.13      51.3      0.11      80.4      0.97      165.2     
690000000           0.96      157.7     0.13      51.5      0.11      80.2      0.97      165.0     
695000000           0.96      157.5     0.13      51.6      0.11      80.1      0.97      164.8     
700000000           0.96      157.2     0.13      51.8      0.12      80.2      0.97      164.7     
705000000           0.96      157.0     0.13      52.1      0.12      80.3      0.97      164.4     
710000000           0.96      156.7     0.13      52.5      0.12      80.5      0.97      164.2     
715000000           0.96      156.5     0.13      52.9      0.12      80.8      0.97      164.1     
720000000           0.96      156.2     0.13      53.3      0.12      81.0      0.97      163.8     
725000000           0.96      155.9     0.13      53.8      0.12      81.3      0.97      163.7     
730000000           0.96      155.6     0.13      54.3      0.12      81.4      0.97      163.5     
735000000           0.96      155.3     0.13      54.9      0.12      81.4      0.97      163.3     
740000000           0.96      155.0     0.13      55.5      0.12      81.3      0.97      163.1     
745000000           0.96      154.7     0.13      56.2      0.13      81.1      0.97      162.9     
750000000           0.96      154.4     0.14      56.7      0.13      80.7      0.97      162.7     
755000000           0.95      154.1     0.14      57.2      0.13      80.3      0.97      162.5     
760000000           0.95      153.9     0.14      57.6      0.13      79.8      0.97      162.3     
765000000           0.95      153.7     0.14      58.0      0.13      79.3      0.97      162.1     
770000000           0.95      153.4     0.14      58.1      0.13      78.9      0.97      161.9     
775000000           0.95      153.3     0.14      58.1      0.13      78.5      0.97      161.7     
780000000           0.95      153.1     0.14      58.1      0.13      78.2      0.97      161.5     
785000000           0.95      152.9     0.14      58.2      0.13      78.0      0.97      161.4     
790000000           0.94      152.7     0.14      58.1      0.13      77.9      0.97      161.2     
795000000           0.94      152.6     0.14      58.1      0.13      77.9      0.97      161.0     
800000000           0.94      152.4     0.14      58.2      0.13      78.0      0.97      160.8     
805000000           0.94      152.3     0.14      58.3      0.13      78.2      0.97      160.6     
810000000           0.94      152.1     0.14      58.6      0.13      78.6      0.97      160.4     
815000000           0.94      152.0     0.14      58.8      0.13      78.9      0.97      160.2     
820000000           0.94      151.8     0.14      59.2      0.14      79.4      0.97      160.0     
825000000           0.94      151.6     0.14      59.7      0.14      79.8      0.97      159.8     
830000000           0.95      151.3     0.14      60.2      0.14      80.1      0.97      159.6     
835000000           0.95      151.1     0.14      60.8      0.14      80.3      0.97      159.4     
840000000           0.95      150.8     0.14      61.4      0.14      80.4      0.97      159.3     
845000000           0.95      150.5     0.15      62.1      0.15      80.2      0.97      159.1     
850000000           0.95      150.2     0.15      62.7      0.15      79.9      0.96      158.9     
855000000           0.95      149.9     0.15      63.4      0.15      79.4      0.96      158.7     
860000000           0.95      149.7     0.15      63.8      0.15      78.9      0.96      158.5     
865000000           0.95      149.4     0.15      64.0      0.15      78.3      0.96      158.3     
870000000           0.95      149.2     0.16      64.0      0.15      77.6      0.96      158.1     
875000000           0.95      149.0     0.16      64.0      0.15      77.1      0.96      157.9     
880000000           0.95      148.7     0.16      63.8      0.15      76.6      0.96      157.8     
885000000           0.95      148.5     0.16      63.4      0.15      76.2      0.96      157.6     
890000000           0.95      148.3     0.16      63.1      0.15      75.9      0.96      157.4     
895000000           0.95      148.1     0.16      62.8      0.15      75.0      0.95      157.4     
900000000           0.95      147.8     0.16      62.6      0.15      74.5      0.95      157.3     
905000000           0.95      147.6     0.16      62.5      0.15      74.9      0.95      157.1     
910000000           0.95      147.3     0.16      62.5      0.15      74.9      0.95      156.9     
915000000           0.95      147.0     0.16      62.8      0.15      75.3      0.94      156.8     
920000000           0.95      146.7     0.16      63.1      0.15      75.8      0.94      156.6     
925000000           0.95      146.4     0.16      63.4      0.16      76.1      0.94      156.4     
930000000           0.95      146.1     0.16      63.8      0.16      76.5      0.94      156.2     
935000000           0.95      145.8     0.16      64.3      0.16      76.7      0.94      156.0     
940000000           0.95      145.5     0.16      64.8      0.16      76.4      0.94      155.8     
945000000           0.95      145.2     0.16      65.3      0.16      73.1      0.92      156.3     
950000000           0.95      144.9     0.17      65.8      0.16      74.2      0.93      155.9     
955000000           0.95      144.7     0.17      66.0      0.15      73.3      0.92      157.6     
960000000           0.94      144.3     0.17      63.0      0.15      -142.4    1.30      -171.4    
965000000           0.95      144.2     0.17      66.4      0.15      75.0      0.94      158.0     
970000000           0.95      144.0     0.17      66.3      0.14      70.2      0.91      159.4     
975000000           0.95      143.7     0.18      66.2      0.12      69.6      0.92      162.5     
980000000           0.97      143.3     0.21      79.3      2.54      41.9      5.56      44.3      
985000000           0.96      143.2     0.20      73.3      1.79      42.9      3.73      48.8      
