! Filename:       BLF245_28V_50mA.s2p            
! Philips part #: BLF245                                                              !date: 22-05-2003
!Vdd=28V ; Idq=50 mA
!
!
!
!
!
!D:\Vee measurements\measurement data\VDMOST\BLF245\28V_50mA_#1
 
# HZ S MA R 50
5000000             0.95      -40.5     27.84     152.9     0.02      63.8      0.93      -35.8     
10000000            0.86      -71.3     22.60     133.3     0.04      44.4      0.83      -64.1     
15000000            0.81      -93.3     18.19     119.2     0.05      30.8      0.74      -84.2     
20000000            0.77      -108.6    14.77     109.1     0.05      21.7      0.69      -97.8     
25000000            0.75      -119.2    12.24     101.4     0.05      14.6      0.66      -108.1    
30000000            0.73      -126.8    10.37     95.5      0.05      9.1       0.65      -115.5    
35000000            0.73      -132.4    8.93      90.5      0.05      4.7       0.64      -121.0    
40000000            0.73      -136.8    7.81      86.2      0.05      1.0       0.64      -125.2    
45000000            0.73      -140.2    6.91      82.3      0.05      -2.1      0.64      -128.5    
50000000            0.74      -142.9    6.17      78.8      0.05      -5.0      0.65      -131.3    
55000000            0.75      -145.2    5.54      75.6      0.05      -7.4      0.66      -133.6    
60000000            0.75      -147.1    5.01      72.7      0.05      -9.6      0.67      -135.7    
65000000            0.76      -148.7    4.56      70.0      0.05      -11.6     0.68      -137.5    
70000000            0.76      -150.0    4.17      67.5      0.05      -13.3     0.69      -139.1    
75000000            0.77      -151.2    3.84      65.2      0.04      -14.8     0.70      -140.6    
80000000            0.78      -152.3    3.54      63.0      0.04      -16.3     0.72      -142.0    
85000000            0.79      -153.4    3.29      60.9      0.04      -17.6     0.73      -143.3    
90000000            0.80      -154.5    3.06      58.8      0.04      -18.8     0.74      -144.6    
95000000            0.81      -155.6    2.85      56.7      0.04      -19.9     0.75      -145.8    
100000000           0.81      -156.8    2.66      54.7      0.04      -20.9     0.76      -146.9    
105000000           0.82      -157.8    2.49      52.8      0.04      -21.8     0.77      -148.1    
110000000           0.82      -158.9    2.34      50.9      0.03      -22.5     0.78      -149.1    
115000000           0.83      -159.8    2.19      49.2      0.03      -23.0     0.79      -150.1    
120000000           0.83      -160.7    2.06      47.5      0.03      -23.2     0.80      -151.1    
125000000           0.84      -161.5    1.93      46.0      0.03      -23.2     0.81      -152.0    
130000000           0.85      -162.2    1.82      44.6      0.03      -22.9     0.81      -152.9    
135000000           0.85      -162.8    1.72      43.3      0.02      -22.4     0.82      -153.7    
140000000           0.86      -163.4    1.63      42.0      0.02      -21.5     0.83      -154.5    
145000000           0.86      -164.0    1.54      40.9      0.02      -20.4     0.84      -155.3    
150000000           0.87      -164.5    1.46      39.8      0.02      -18.9     0.84      -156.1    
155000000           0.88      -165.0    1.39      38.7      0.02      -17.0     0.85      -156.8    
160000000           0.88      -165.6    1.32      37.7      0.02      -14.9     0.86      -157.6    
165000000           0.89      -166.1    1.26      36.7      0.02      -12.1     0.86      -158.3    
170000000           0.90      -166.8    1.20      35.7      0.02      -8.9      0.87      -159.0    
175000000           0.90      -167.4    1.15      34.7      0.01      -5.0      0.87      -159.7    
180000000           0.90      -168.0    1.10      33.8      0.01      -0.7      0.88      -160.3    
185000000           0.91      -168.6    1.06      32.8      0.01      4.4       0.88      -161.0    
190000000           0.91      -169.3    1.01      31.9      0.01      10.3      0.89      -161.6    
195000000           0.91      -169.9    0.97      31.0      0.01      16.6      0.89      -162.3    
200000000           0.91      -170.5    0.93      30.1      0.01      23.3      0.89      -162.9    
205000000           0.91      -171.0    0.89      29.3      0.01      30.2      0.90      -163.5    
210000000           0.91      -171.6    0.85      28.5      0.01      37.0      0.90      -164.1    
215000000           0.92      -172.1    0.82      27.7      0.01      43.5      0.91      -164.6    
220000000           0.92      -172.5    0.79      27.0      0.01      49.4      0.91      -165.2    
225000000           0.92      -173.0    0.76      26.3      0.01      54.7      0.91      -165.7    
230000000           0.92      -173.4    0.73      25.7      0.01      59.4      0.91      -166.2    
235000000           0.92      -173.8    0.70      25.2      0.01      63.5      0.92      -166.7    
240000000           0.93      -174.2    0.67      24.7      0.02      67.1      0.92      -167.2    
245000000           0.93      -174.6    0.65      24.3      0.02      70.3      0.92      -167.7    
250000000           0.93      -175.0    0.63      23.9      0.02      72.9      0.93      -168.1    
255000000           0.94      -175.4    0.61      23.5      0.02      75.2      0.93      -168.6    
260000000           0.94      -175.8    0.59      23.2      0.02      77.2      0.93      -169.0    
265000000           0.94      -176.3    0.57      22.8      0.02      78.8      0.93      -169.5    
270000000           0.95      -176.8    0.55      22.4      0.02      80.2      0.93      -169.9    
275000000           0.95      -177.2    0.53      22.0      0.02      81.3      0.94      -170.3    
280000000           0.95      -177.7    0.52      21.7      0.02      82.2      0.94      -170.8    
285000000           0.95      -178.1    0.50      21.2      0.03      82.9      0.94      -171.2    
290000000           0.95      -178.5    0.49      20.8      0.03      83.5      0.94      -171.6    
295000000           0.95      -178.9    0.47      20.4      0.03      84.0      0.94      -172.0    
300000000           0.95      -179.3    0.46      20.1      0.03      84.5      0.94      -172.4    
305000000           0.95      -179.6    0.44      19.8      0.03      84.9      0.95      -172.8    
310000000           0.95      -180.0    0.43      19.6      0.03      85.3      0.95      -173.2    
315000000           0.95      179.7     0.42      19.3      0.03      85.7      0.95      -173.5    
320000000           0.95      179.3     0.41      19.2      0.03      86.0      0.95      -173.9    
325000000           0.95      179.0     0.39      19.0      0.03      86.4      0.95      -174.3    
330000000           0.95      178.7     0.38      19.0      0.04      86.7      0.95      -174.6    
335000000           0.95      178.4     0.37      18.9      0.04      87.0      0.95      -174.9    
340000000           0.95      178.0     0.36      18.9      0.04      87.2      0.95      -175.3    
345000000           0.96      177.7     0.36      18.8      0.04      87.5      0.95      -175.6    
350000000           0.96      177.3     0.35      18.8      0.04      87.7      0.96      -175.9    
355000000           0.96      177.0     0.34      18.7      0.04      87.9      0.96      -176.3    
360000000           0.96      176.6     0.33      18.7      0.04      88.0      0.96      -176.6    
365000000           0.96      176.2     0.32      18.7      0.04      88.1      0.96      -176.9    
370000000           0.96      175.8     0.31      18.7      0.05      88.2      0.96      -177.2    
375000000           0.96      175.5     0.31      18.8      0.05      88.2      0.96      -177.6    
380000000           0.96      175.2     0.30      18.8      0.05      88.1      0.96      -177.9    
385000000           0.96      174.8     0.29      18.8      0.05      88.0      0.96      -178.2    
390000000           0.96      174.5     0.29      18.9      0.05      87.9      0.96      -178.5    
395000000           0.96      174.2     0.28      18.9      0.05      87.8      0.96      -178.8    
400000000           0.96      173.9     0.27      19.1      0.05      87.6      0.96      -179.1    
405000000           0.96      173.7     0.27      19.2      0.05      87.5      0.96      -179.4    
410000000           0.96      173.4     0.26      19.2      0.05      87.4      0.96      -179.7    
415000000           0.96      173.1     0.26      19.4      0.06      87.3      0.96      -180.0    
420000000           0.96      172.8     0.25      19.4      0.06      87.3      0.96      179.8     
425000000           0.96      172.6     0.25      19.6      0.06      87.3      0.97      179.5     
430000000           0.96      172.3     0.24      19.8      0.06      87.3      0.97      179.2     
435000000           0.96      172.0     0.24      20.0      0.06      87.4      0.97      178.9     
440000000           0.97      171.7     0.23      20.3      0.06      87.5      0.97      178.6     
445000000           0.97      171.3     0.23      20.5      0.06      87.5      0.97      178.4     
450000000           0.97      171.0     0.22      20.9      0.06      87.6      0.97      178.1     
455000000           0.97      170.7     0.22      21.2      0.06      87.7      0.97      177.8     
460000000           0.97      170.4     0.22      21.5      0.07      87.7      0.97      177.5     
465000000           0.97      170.0     0.21      21.9      0.07      87.6      0.97      177.3     
470000000           0.97      169.7     0.21      22.2      0.07      87.5      0.97      177.0     
475000000           0.97      169.4     0.21      22.6      0.07      87.3      0.97      176.7     
480000000           0.97      169.1     0.20      23.0      0.07      87.0      0.97      176.5     
485000000           0.97      168.8     0.20      23.3      0.07      86.7      0.97      176.2     
490000000           0.97      168.6     0.20      23.6      0.07      86.4      0.97      176.0     
495000000           0.96      168.4     0.19      24.0      0.07      86.2      0.97      175.7     
500000000           0.96      168.1     0.19      24.2      0.07      86.0      0.97      175.5     
505000000           0.96      167.9     0.19      24.6      0.08      85.9      0.97      175.2     
510000000           0.96      167.6     0.19      25.1      0.08      85.8      0.97      175.0     
515000000           0.96      167.4     0.18      25.4      0.08      85.8      0.97      174.7     
520000000           0.96      167.1     0.18      25.9      0.08      85.8      0.97      174.5     
525000000           0.97      166.8     0.18      26.3      0.08      85.8      0.97      174.3     
530000000           0.97      166.5     0.18      26.8      0.08      85.9      0.97      174.0     
535000000           0.97      166.2     0.17      27.2      0.08      85.9      0.97      173.8     
540000000           0.97      165.9     0.17      27.7      0.08      85.9      0.97      173.5     
545000000           0.97      165.6     0.17      28.3      0.08      85.9      0.97      173.3     
550000000           0.97      165.3     0.17      28.7      0.08      85.8      0.97      173.1     
555000000           0.97      165.0     0.17      29.4      0.09      85.7      0.97      172.8     
560000000           0.97      164.7     0.17      29.9      0.09      85.6      0.97      172.6     
565000000           0.97      164.4     0.16      30.4      0.09      85.4      0.97      172.4     
570000000           0.97      164.1     0.16      31.0      0.09      85.1      0.97      172.1     
575000000           0.97      163.9     0.16      31.6      0.09      84.9      0.97      171.9     
580000000           0.97      163.6     0.16      32.2      0.09      84.6      0.97      171.7     
585000000           0.96      163.4     0.16      32.6      0.09      84.3      0.97      171.5     
590000000           0.96      163.2     0.16      33.1      0.09      84.1      0.97      171.3     
595000000           0.96      162.9     0.16      33.5      0.09      83.9      0.97      171.0     
600000000           0.96      162.7     0.16      34.0      0.10      83.7      0.97      170.8     
605000000           0.96      162.5     0.16      34.5      0.10      83.6      0.97      170.6     
610000000           0.96      162.2     0.15      34.8      0.10      83.6      0.97      170.4     
615000000           0.96      161.9     0.15      35.3      0.10      83.7      0.97      170.2     
620000000           0.96      161.7     0.15      35.6      0.10      83.7      0.97      169.9     
625000000           0.96      161.4     0.15      36.2      0.10      83.9      0.97      169.7     
630000000           0.96      161.1     0.15      36.9      0.10      84.0      0.97      169.5     
635000000           0.96      160.8     0.15      37.5      0.10      84.2      0.97      169.3     
640000000           0.96      160.5     0.15      38.3      0.10      84.2      0.97      169.1     
645000000           0.96      160.2     0.15      38.8      0.10      84.2      0.97      168.9     
650000000           0.97      159.9     0.15      39.7      0.11      84.1      0.97      168.6     
655000000           0.96      159.6     0.15      40.4      0.11      83.8      0.97      168.4     
660000000           0.96      159.4     0.15      40.9      0.11      83.4      0.97      168.2     
665000000           0.96      159.1     0.15      41.6      0.11      83.0      0.97      168.0     
670000000           0.96      158.9     0.15      42.2      0.11      82.5      0.97      167.8     
675000000           0.96      158.6     0.15      42.6      0.11      82.1      0.97      167.6     
680000000           0.96      158.4     0.15      42.9      0.11      81.7      0.97      167.4     
685000000           0.96      158.2     0.15      43.1      0.11      81.4      0.97      167.2     
690000000           0.96      158.0     0.15      43.4      0.11      81.2      0.97      167.0     
695000000           0.96      157.7     0.15      43.6      0.11      81.1      0.97      166.8     
700000000           0.96      157.5     0.15      43.8      0.11      81.1      0.97      166.5     
705000000           0.96      157.2     0.15      44.2      0.11      81.3      0.97      166.3     
710000000           0.96      157.0     0.15      44.4      0.12      81.5      0.97      166.1     
715000000           0.96      156.8     0.15      45.0      0.12      81.7      0.97      165.9     
720000000           0.96      156.4     0.14      45.5      0.12      82.0      0.97      165.7     
725000000           0.96      156.1     0.14      46.1      0.12      82.2      0.97      165.5     
730000000           0.96      155.8     0.14      46.7      0.12      82.4      0.97      165.3     
735000000           0.96      155.5     0.14      47.5      0.12      82.4      0.97      165.1     
740000000           0.96      155.2     0.14      48.1      0.12      82.3      0.97      164.9     
745000000           0.96      155.0     0.14      48.8      0.13      82.1      0.97      164.7     
750000000           0.96      154.7     0.14      49.4      0.13      81.7      0.97      164.5     
755000000           0.96      154.4     0.15      49.9      0.13      81.3      0.97      164.3     
760000000           0.96      154.1     0.15      50.5      0.13      80.8      0.97      164.1     
765000000           0.95      153.9     0.15      50.9      0.13      80.3      0.97      163.9     
770000000           0.95      153.7     0.15      51.1      0.13      79.9      0.97      163.7     
775000000           0.95      153.5     0.15      51.4      0.13      79.5      0.97      163.5     
780000000           0.95      153.2     0.15      51.6      0.13      79.2      0.97      163.3     
785000000           0.95      153.0     0.15      51.5      0.13      79.0      0.97      163.1     
790000000           0.95      152.8     0.15      51.7      0.13      78.8      0.97      162.9     
795000000           0.95      152.6     0.15      51.7      0.13      78.8      0.97      162.7     
800000000           0.94      152.4     0.15      51.6      0.13      78.8      0.97      162.5     
805000000           0.94      152.2     0.15      51.9      0.13      79.0      0.97      162.3     
810000000           0.94      152.1     0.15      52.0      0.13      79.2      0.97      162.1     
815000000           0.94      151.9     0.15      52.4      0.13      79.5      0.97      161.9     
820000000           0.94      151.7     0.15      52.6      0.14      79.9      0.97      161.7     
825000000           0.94      151.5     0.15      53.2      0.14      80.3      0.97      161.5     
830000000           0.94      151.3     0.15      53.9      0.14      80.6      0.97      161.3     
835000000           0.94      151.1     0.15      54.5      0.14      80.8      0.96      161.1     
840000000           0.94      150.9     0.15      55.4      0.14      81.0      0.96      160.9     
845000000           0.94      150.7     0.15      56.1      0.14      80.9      0.96      160.7     
850000000           0.95      150.4     0.15      57.0      0.15      80.6      0.96      160.5     
855000000           0.95      150.2     0.15      57.6      0.15      80.1      0.96      160.3     
860000000           0.95      149.9     0.15      58.2      0.15      79.6      0.96      160.1     
865000000           0.95      149.7     0.16      58.6      0.15      79.0      0.96      159.9     
870000000           0.95      149.5     0.16      58.7      0.15      78.4      0.96      159.7     
875000000           0.95      149.2     0.16      58.7      0.15      77.9      0.96      159.5     
880000000           0.95      149.0     0.16      58.5      0.15      77.4      0.96      159.3     
885000000           0.95      148.8     0.16      58.3      0.15      77.0      0.96      159.1     
890000000           0.95      148.6     0.16      58.1      0.15      76.6      0.96      159.0     
895000000           0.95      148.4     0.16      58.1      0.15      75.8      0.95      158.9     
900000000           0.95      148.1     0.16      57.8      0.15      75.2      0.95      158.8     
905000000           0.95      147.8     0.16      57.8      0.15      75.7      0.95      158.6     
910000000           0.95      147.5     0.16      57.9      0.15      75.7      0.95      158.4     
915000000           0.95      147.2     0.16      58.2      0.15      76.1      0.94      158.3     
920000000           0.95      147.0     0.16      58.5      0.15      76.5      0.94      158.1     
925000000           0.95      146.7     0.16      58.9      0.16      76.9      0.94      157.9     
930000000           0.95      146.3     0.16      59.3      0.16      77.2      0.94      157.7     
935000000           0.95      146.0     0.16      59.9      0.16      77.4      0.94      157.5     
940000000           0.95      145.7     0.16      60.5      0.16      77.2      0.94      157.3     
945000000           0.95      145.4     0.17      61.1      0.16      73.8      0.92      157.7     
950000000           0.95      145.2     0.17      61.7      0.16      74.9      0.93      157.3     
955000000           0.95      144.9     0.17      62.0      0.15      74.0      0.93      158.9     
960000000           0.94      144.6     0.17      59.3      0.14      -144.0    1.29      -172.3    
965000000           0.95      144.4     0.17      62.4      0.15      75.6      0.94      159.2     
970000000           0.95      144.2     0.18      62.5      0.14      70.7      0.92      160.5     
975000000           0.94      144.0     0.18      62.5      0.12      69.9      0.92      163.5     
