! PART_NUMBER: 742792312
! NOM_L= 0.0H
! IMAX= 3.0A
! MAKE: wUERTH ELEKTRONIK
! DIM: 1210
! SRF: 
! SMD-Ferrit WE-CBF
! DATASHEET: 742792312.pdf
!
# MHz  S  MA  R 50
1.000000 0.015 88.081 1.000 -0.835 1.000 -0.835 0.015 88.081 
1.078972 0.016 87.929 1.000 -0.900 1.000 -0.900 0.016 87.929 
1.164181 0.017 87.766 0.999 -0.971 0.999 -0.971 0.017 87.766 
1.256119 0.018 87.590 0.999 -1.048 0.999 -1.048 0.018 87.590 
1.355318 0.020 87.400 0.999 -1.130 0.999 -1.130 0.020 87.400 
1.462351 0.021 87.195 0.999 -1.220 0.999 -1.220 0.021 87.195 
1.577836 0.023 86.974 0.999 -1.316 0.999 -1.316 0.023 86.974 
1.702441 0.025 86.735 0.999 -1.419 0.999 -1.419 0.025 86.735 
1.836887 0.027 86.478 0.999 -1.531 0.999 -1.531 0.027 86.478 
1.981950 0.029 86.200 0.999 -1.651 0.999 -1.651 0.029 86.200 
2.138469 0.031 85.901 0.998 -1.780 0.998 -1.780 0.031 85.901 
2.307349 0.034 85.579 0.998 -1.920 0.998 -1.920 0.034 85.579 
2.489566 0.036 85.231 0.998 -2.070 0.998 -2.070 0.036 85.231 
2.686173 0.039 84.857 0.997 -2.232 0.997 -2.232 0.039 84.857 
2.898306 0.042 84.453 0.997 -2.406 0.997 -2.406 0.042 84.453 
3.127192 0.045 84.018 0.996 -2.594 0.996 -2.594 0.045 84.018 
3.374153 0.049 83.549 0.996 -2.796 0.996 -2.796 0.049 83.549 
3.640618 0.053 83.045 0.995 -3.013 0.995 -3.013 0.053 83.045 
3.928126 0.057 82.502 0.994 -3.246 0.994 -3.246 0.057 82.502 
4.238339 0.061 81.917 0.993 -3.496 0.993 -3.496 0.061 81.917 
4.573051 0.066 81.288 0.992 -3.764 0.992 -3.764 0.066 81.288 
4.934195 0.071 80.612 0.991 -4.052 0.991 -4.052 0.071 80.612 
5.323860 0.076 79.885 0.989 -4.360 0.989 -4.360 0.076 79.885 
5.744297 0.082 79.105 0.988 -4.689 0.988 -4.689 0.082 79.105 
6.197938 0.088 78.267 0.986 -5.040 0.986 -5.040 0.088 78.267 
6.687403 0.095 77.369 0.984 -5.415 0.984 -5.415 0.095 77.369 
7.215523 0.102 76.408 0.981 -5.814 0.981 -5.814 0.102 76.408 
7.785349 0.110 75.378 0.978 -6.237 0.978 -6.237 0.110 75.378 
8.400176 0.118 74.279 0.975 -6.685 0.975 -6.685 0.118 74.279 
9.063558 0.126 73.106 0.971 -7.158 0.971 -7.158 0.126 73.106 
9.779328 0.135 71.856 0.966 -7.655 0.966 -7.655 0.135 71.856 
10.551624 0.145 70.527 0.961 -8.176 0.961 -8.176 0.145 70.527 
11.384910 0.155 69.117 0.956 -8.719 0.956 -8.719 0.155 69.117 
12.284003 0.166 67.626 0.949 -9.282 0.949 -9.282 0.166 67.626 
13.254099 0.177 66.051 0.942 -9.862 0.942 -9.862 0.177 66.051 
14.300805 0.188 64.394 0.934 -10.456 0.934 -10.456 0.188 64.394 
15.430173 0.200 62.656 0.925 -11.058 0.925 -11.058 0.200 62.656 
16.648730 0.212 60.840 0.916 -11.663 0.916 -11.663 0.212 60.840 
17.963518 0.224 58.951 0.905 -12.265 0.905 -12.265 0.224 58.951 
19.382139 0.237 56.992 0.893 -12.854 0.893 -12.854 0.237 56.992 
20.912791 0.250 54.973 0.881 -13.424 0.881 -13.424 0.250 54.973 
22.564322 0.262 52.900 0.867 -13.964 0.867 -13.964 0.262 52.900 
24.346279 0.275 50.783 0.853 -14.465 0.853 -14.465 0.275 50.783 
26.268961 0.287 48.634 0.838 -14.916 0.838 -14.916 0.287 48.634 
28.343482 0.300 46.464 0.823 -15.309 0.823 -15.309 0.300 46.464 
30.581832 0.311 44.285 0.807 -15.633 0.807 -15.633 0.311 44.285 
32.996950 0.323 42.110 0.791 -15.883 0.791 -15.883 0.323 42.110 
35.602795 0.333 39.951 0.775 -16.050 0.775 -16.050 0.333 39.951 
38.414430 0.344 37.820 0.758 -16.132 0.758 -16.132 0.344 37.820 
41.448107 0.353 35.728 0.743 -16.125 0.743 -16.125 0.353 35.728 
44.721360 0.362 33.686 0.727 -16.030 0.727 -16.030 0.362 33.686 
48.253109 0.370 31.702 0.712 -15.849 0.712 -15.849 0.370 31.702 
52.063768 0.378 29.784 0.698 -15.587 0.698 -15.587 0.378 29.784 
56.175364 0.384 27.937 0.685 -15.250 0.685 -15.250 0.384 27.937 
60.611663 0.390 26.167 0.672 -14.846 0.672 -14.846 0.390 26.167 
65.398306 0.396 24.476 0.660 -14.384 0.660 -14.384 0.396 24.476 
70.562961 0.401 22.867 0.650 -13.873 0.650 -13.873 0.401 22.867 
76.135481 0.405 21.340 0.640 -13.325 0.640 -13.325 0.405 21.340 
82.148076 0.409 19.895 0.631 -12.747 0.631 -12.747 0.409 19.895 
88.635500 0.412 18.531 0.623 -12.150 0.623 -12.150 0.412 18.531 
95.635250 0.415 17.246 0.616 -11.541 0.616 -11.541 0.415 17.246 
103.187787 0.418 16.038 0.609 -10.930 0.609 -10.930 0.418 16.038 
111.336765 0.420 14.904 0.604 -10.321 0.604 -10.321 0.420 14.904 
120.129286 0.422 13.842 0.598 -9.721 0.598 -9.721 0.422 13.842 
129.616174 0.424 12.847 0.594 -9.135 0.594 -9.135 0.424 12.847 
139.852263 0.426 11.916 0.590 -8.565 0.590 -8.565 0.426 11.916 
150.896719 0.427 11.046 0.587 -8.016 0.587 -8.016 0.427 11.046 
162.813382 0.428 10.234 0.584 -7.488 0.584 -7.488 0.428 10.234 
175.671131 0.429 9.476 0.581 -6.983 0.581 -6.983 0.429 9.476 
189.544286 0.430 8.768 0.579 -6.502 0.579 -6.502 0.430 8.768 
204.513037 0.431 8.108 0.577 -6.045 0.577 -6.045 0.431 8.108 
220.663904 0.431 7.492 0.575 -5.611 0.575 -5.611 0.431 7.492 
238.090242 0.432 6.917 0.574 -5.202 0.574 -5.202 0.432 6.917 
256.892779 0.432 6.380 0.572 -4.815 0.572 -4.815 0.432 6.380 
277.180196 0.433 5.879 0.571 -4.450 0.571 -4.450 0.433 5.879 
299.069756 0.433 5.411 0.570 -4.106 0.570 -4.106 0.433 5.411 
322.687986 0.433 4.973 0.569 -3.783 0.569 -3.783 0.433 4.973 
348.171402 0.434 4.563 0.569 -3.478 0.569 -3.478 0.434 4.563 
375.667303 0.434 4.179 0.568 -3.190 0.568 -3.190 0.434 4.179 
405.334618 0.434 3.819 0.568 -2.920 0.568 -2.920 0.434 3.819 
437.344830 0.434 3.481 0.567 -2.664 0.567 -2.664 0.434 3.481 
471.882962 0.434 3.162 0.567 -2.423 0.567 -2.423 0.434 3.162 
509.148650 0.434 2.862 0.566 -2.194 0.566 -2.194 0.434 2.862 
549.357296 0.435 2.577 0.566 -1.978 0.566 -1.978 0.435 2.577 
592.741311 0.435 2.308 0.566 -1.772 0.566 -1.772 0.435 2.308 
639.551462 0.435 2.052 0.566 -1.577 0.566 -1.577 0.435 2.052 
690.058320 0.435 1.807 0.566 -1.389 0.566 -1.389 0.435 1.807 
744.553820 0.435 1.573 0.565 -1.210 0.565 -1.210 0.435 1.573 
803.352956 0.435 1.348 0.565 -1.037 0.565 -1.037 0.435 1.348 
866.795596 0.435 1.131 0.565 -0.870 0.565 -0.870 0.435 1.131 
935.248448 0.435 0.920 0.565 -0.708 0.565 -0.708 0.435 0.920 
1009.107179 0.435 0.715 0.565 -0.550 0.565 -0.550 0.435 0.715 
1088.798706 0.435 0.513 0.565 -0.395 0.565 -0.395 0.435 0.513 
1174.783656 0.435 0.315 0.565 -0.242 0.565 -0.242 0.435 0.315 
1267.559037 0.435 0.118 0.565 -0.091 0.565 -0.091 0.435 0.118 
1367.661104 0.435 -0.078 0.565 0.060 0.565 0.060 0.435 -0.078 
1475.668463 0.435 -0.274 0.565 0.211 0.565 0.211 0.435 -0.274 
1592.205412 0.435 -0.472 0.565 0.363 0.565 0.363 0.435 -0.472 
1717.945554 0.435 -0.673 0.565 0.518 0.565 0.518 0.435 -0.673 
1853.615685 0.435 -0.877 0.565 0.675 0.565 0.675 0.435 -0.877 
2000.000000 0.435 -1.087 0.565 0.836 0.565 0.836 0.435 -1.087 
