# HZ S MA R 50
5000000             0.91      -48.3     25.72     147.1     0.03      57.9      0.92      -47.8     
10000000            0.80      -81.4     19.43     125.8     0.05      36.8      0.81      -81.3     
15000000            0.74      -102.8    14.90     112.0     0.06      23.5      0.74      -102.4    
20000000            0.71      -116.7    11.79     102.4     0.06      15.0      0.71      -115.5    
25000000            0.69      -125.9    9.60      95.3      0.06      8.5       0.70      -124.7    
30000000            0.68      -132.3    8.04      89.7      0.06      3.3       0.69      -131.1    
35000000            0.69      -136.9    6.87      84.9      0.06      -0.9      0.69      -135.6    
40000000            0.69      -140.3    5.97      80.8      0.06      -4.4      0.69      -139.0    
45000000            0.70      -143.0    5.25      77.0      0.06      -7.4      0.70      -141.6    
50000000            0.71      -145.2    4.67      73.6      0.06      -10.2     0.71      -143.8    
55000000            0.72      -147.1    4.17      70.4      0.05      -12.6     0.72      -145.6    
60000000            0.73      -148.6    3.76      67.5      0.05      -14.8     0.73      -147.2    
65000000            0.74      -149.9    3.41      64.8      0.05      -16.7     0.74      -148.6    
70000000            0.75      -151.1    3.10      62.4      0.05      -18.4     0.75      -149.9    
75000000            0.76      -152.1    2.84      60.1      0.05      -19.9     0.76      -151.0    
80000000            0.77      -153.1    2.61      57.9      0.05      -21.3     0.77      -152.1    
85000000            0.78      -154.1    2.42      55.8      0.04      -22.6     0.78      -153.2    
90000000            0.79      -155.1    2.24      53.7      0.04      -23.8     0.79      -154.2    
95000000            0.80      -156.2    2.08      51.7      0.04      -24.9     0.80      -155.1    
100000000           0.81      -157.3    1.94      49.8      0.04      -25.9     0.81      -156.1    
105000000           0.82      -158.3    1.81      47.8      0.04      -26.8     0.82      -156.9    
110000000           0.82      -159.3    1.69      46.0      0.03      -27.4     0.83      -157.8    
115000000           0.83      -160.3    1.58      44.3      0.03      -27.8     0.84      -158.6    
120000000           0.83      -161.1    1.48      42.7      0.03      -28.0     0.85      -159.4    
125000000           0.84      -161.9    1.39      41.2      0.03      -28.0     0.85      -160.1    
130000000           0.85      -162.6    1.31      39.9      0.03      -27.6     0.86      -160.8    
135000000           0.85      -163.3    1.23      38.7      0.03      -27.0     0.87      -161.5    
140000000           0.86      -163.9    1.16      37.5      0.02      -26.1     0.87      -162.2    
145000000           0.87      -164.4    1.10      36.4      0.02      -24.8     0.88      -162.8    
150000000           0.87      -165.0    1.04      35.4      0.02      -23.3     0.88      -163.4    
155000000           0.88      -165.5    0.99      34.4      0.02      -21.2     0.89      -164.0    
160000000           0.89      -166.1    0.94      33.5      0.02      -18.9     0.89      -164.6    
165000000           0.89      -166.6    0.89      32.6      0.02      -16.0     0.90      -165.2    
170000000           0.90      -167.3    0.85      31.7      0.02      -12.5     0.90      -165.8    
175000000           0.91      -167.9    0.81      30.8      0.01      -8.4      0.91      -166.3    
180000000           0.91      -168.5    0.78      29.9      0.01      -3.5      0.91      -166.9    
185000000           0.91      -169.1    0.74      29.1      0.01      2.1       0.91      -167.4    
190000000           0.91      -169.8    0.71      28.2      0.01      8.4       0.92      -167.9    
195000000           0.92      -170.4    0.68      27.4      0.01      15.2      0.92      -168.4    
200000000           0.92      -171.0    0.65      26.6      0.01      22.4      0.92      -168.9    
205000000           0.92      -171.6    0.63      25.8      0.01      29.7      0.93      -169.4    
210000000           0.92      -172.1    0.60      25.1      0.01      36.7      0.93      -169.9    
215000000           0.92      -172.6    0.57      24.5      0.01      43.3      0.93      -170.4    
220000000           0.92      -173.1    0.55      23.8      0.01      49.2      0.93      -170.8    
225000000           0.92      -173.5    0.53      23.3      0.01      54.5      0.93      -171.3    
230000000           0.92      -173.9    0.51      22.9      0.01      59.1      0.94      -171.7    
235000000           0.93      -174.3    0.49      22.5      0.01      63.2      0.94      -172.1    
240000000           0.93      -174.7    0.47      22.2      0.02      66.6      0.94      -172.5    
245000000           0.94      -175.1    0.45      21.9      0.02      69.6      0.94      -172.9    
250000000           0.94      -175.5    0.44      21.6      0.02      72.1      0.95      -173.3    
255000000           0.94      -175.9    0.42      21.4      0.02      74.3      0.95      -173.6    
260000000           0.95      -176.4    0.41      21.1      0.02      76.1      0.95      -174.0    
265000000           0.95      -176.8    0.40      20.9      0.02      77.7      0.95      -174.4    
270000000           0.95      -177.2    0.38      20.6      0.02      79.0      0.95      -174.7    
275000000           0.95      -177.7    0.37      20.4      0.02      80.0      0.95      -175.1    
280000000           0.95      -178.2    0.36      20.1      0.03      80.8      0.95      -175.5    
285000000           0.95      -178.6    0.35      19.9      0.03      81.5      0.96      -175.8    
290000000           0.95      -179.0    0.34      19.6      0.03      82.1      0.96      -176.2    
295000000           0.95      -179.4    0.33      19.4      0.03      82.6      0.96      -176.5    
300000000           0.95      -179.8    0.32      19.2      0.03      83.0      0.96      -176.8    
305000000           0.95      179.8     0.31      19.0      0.03      83.4      0.96      -177.1    
310000000           0.95      179.5     0.30      19.0      0.03      83.8      0.96      -177.5    
315000000           0.95      179.2     0.29      18.9      0.03      84.1      0.96      -177.8    
320000000           0.95      178.9     0.28      19.0      0.03      84.5      0.96      -178.1    
325000000           0.95      178.6     0.28      19.0      0.04      84.8      0.96      -178.4    
330000000           0.95      178.2     0.27      19.1      0.04      85.1      0.96      -178.7    
335000000           0.96      177.9     0.26      19.2      0.04      85.4      0.96      -179.0    
340000000           0.96      177.6     0.25      19.4      0.04      85.7      0.97      -179.3    
345000000           0.96      177.2     0.25      19.5      0.04      85.9      0.97      -179.6    
350000000           0.96      176.9     0.24      19.7      0.04      86.1      0.97      -179.8    
355000000           0.96      176.5     0.24      19.8      0.04      86.3      0.97      179.9     
360000000           0.97      176.1     0.23      20.0      0.04      86.4      0.97      179.6     
365000000           0.97      175.8     0.23      20.2      0.05      86.5      0.97      179.3     
370000000           0.97      175.4     0.22      20.4      0.05      86.6      0.97      179.1     
375000000           0.97      175.0     0.22      20.6      0.05      86.6      0.97      178.8     
380000000           0.97      174.7     0.21      20.8      0.05      86.6      0.97      178.5     
385000000           0.97      174.4     0.21      21.2      0.05      86.5      0.97      178.2     
390000000           0.96      174.1     0.20      21.5      0.05      86.4      0.97      178.0     
395000000           0.96      173.8     0.20      21.7      0.05      86.2      0.97      177.7     
400000000           0.96      173.5     0.19      22.1      0.05      86.1      0.97      177.5     
405000000           0.96      173.3     0.19      22.3      0.05      86.0      0.97      177.2     
410000000           0.96      173.0     0.19      22.6      0.06      85.9      0.97      176.9     
415000000           0.96      172.7     0.18      23.0      0.06      85.8      0.97      176.7     
420000000           0.96      172.4     0.18      23.4      0.06      85.8      0.97      176.4     
425000000           0.96      172.2     0.18      23.7      0.06      85.7      0.97      176.2     
430000000           0.96      171.9     0.17      24.2      0.06      85.8      0.97      175.9     
435000000           0.97      171.6     0.17      24.6      0.06      85.9      0.97      175.7     
440000000           0.97      171.3     0.17      25.1      0.06      86.0      0.97      175.4     
445000000           0.97      170.9     0.16      25.6      0.06      86.1      0.97      175.2     
450000000           0.97      170.6     0.16      26.1      0.06      86.2      0.97      174.9     
455000000           0.97      170.3     0.16      26.6      0.06      86.2      0.97      174.7     
460000000           0.97      170.0     0.16      27.2      0.07      86.2      0.97      174.5     
465000000           0.97      169.6     0.16      27.8      0.07      86.2      0.98      174.2     
470000000           0.97      169.3     0.15      28.4      0.07      86.1      0.98      174.0     
475000000           0.97      169.0     0.15      28.9      0.07      85.9      0.98      173.8     
480000000           0.97      168.8     0.15      29.5      0.07      85.6      0.98      173.5     
485000000           0.97      168.5     0.15      30.2      0.07      85.3      0.98      173.3     
490000000           0.97      168.3     0.15      30.6      0.07      85.1      0.98      173.1     
495000000           0.97      168.0     0.15      31.1      0.07      84.8      0.98      172.9     
500000000           0.97      167.8     0.14      31.6      0.08      84.7      0.98      172.6     
505000000           0.96      167.5     0.14      32.2      0.08      84.5      0.98      172.4     
510000000           0.97      167.3     0.14      32.7      0.08      84.5      0.98      172.2     
515000000           0.97      167.0     0.14      33.3      0.08      84.4      0.98      172.0     
520000000           0.97      166.7     0.14      33.9      0.08      84.5      0.98      171.8     
525000000           0.97      166.5     0.14      34.5      0.08      84.5      0.98      171.5     
530000000           0.97      166.2     0.14      35.1      0.08      84.6      0.98      171.3     
535000000           0.97      165.9     0.14      35.8      0.08      84.6      0.98      171.1     
540000000           0.97      165.6     0.13      36.4      0.08      84.6      0.98      170.9     
545000000           0.97      165.2     0.13      37.1      0.08      84.6      0.98      170.7     
550000000           0.97      164.9     0.13      37.8      0.09      84.6      0.98      170.5     
555000000           0.97      164.6     0.13      38.3      0.09      84.5      0.98      170.2     
560000000           0.97      164.4     0.13      39.1      0.09      84.4      0.98      170.0     
565000000           0.97      164.0     0.13      39.6      0.09      84.1      0.98      169.8     
570000000           0.97      163.8     0.13      40.6      0.09      83.9      0.98      169.6     
575000000           0.97      163.6     0.13      40.9      0.09      83.7      0.98      169.4     
580000000           0.97      163.3     0.13      41.5      0.09      83.4      0.98      169.2     
585000000           0.97      163.1     0.13      42.1      0.09      83.1      0.98      169.0     
590000000           0.97      162.8     0.13      42.7      0.09      82.8      0.98      168.8     
595000000           0.96      162.6     0.13      43.1      0.10      82.7      0.98      168.6     
600000000           0.96      162.4     0.13      43.5      0.10      82.6      0.98      168.4     
605000000           0.96      162.2     0.13      44.2      0.10      82.5      0.98      168.2     
610000000           0.96      161.9     0.13      44.7      0.10      82.4      0.98      168.0     
615000000           0.96      161.6     0.13      44.9      0.10      82.5      0.97      167.8     
620000000           0.96      161.3     0.13      45.5      0.10      82.6      0.97      167.6     
625000000           0.96      161.1     0.13      46.0      0.10      82.7      0.97      167.4     
630000000           0.96      160.8     0.13      46.6      0.10      82.9      0.97      167.2     
635000000           0.97      160.5     0.13      47.3      0.10      83.0      0.97      167.0     
640000000           0.97      160.2     0.13      47.9      0.10      83.1      0.97      166.8     
645000000           0.97      159.9     0.13      48.6      0.11      83.1      0.97      166.6     
650000000           0.97      159.6     0.13      49.5      0.11      82.9      0.97      166.4     
655000000           0.97      159.3     0.13      50.1      0.11      82.7      0.97      166.2     
660000000           0.97      159.1     0.13      50.8      0.11      82.3      0.97      166.0     
665000000           0.96      158.8     0.13      51.4      0.11      81.9      0.97      165.8     
670000000           0.96      158.6     0.13      51.8      0.11      81.4      0.97      165.6     
675000000           0.96      158.4     0.13      52.1      0.11      80.9      0.97      165.4     
680000000           0.96      158.1     0.13      52.3      0.11      80.5      0.97      165.2     
685000000           0.96      157.9     0.13      52.5      0.11      80.2      0.97      165.0     
690000000           0.96      157.7     0.13      52.7      0.11      80.1      0.97      164.8     
695000000           0.96      157.4     0.13      52.8      0.12      80.0      0.97      164.6     
700000000           0.96      157.2     0.13      52.9      0.12      80.0      0.97      164.4     
705000000           0.96      157.0     0.13      53.1      0.12      80.2      0.97      164.2     
710000000           0.96      156.7     0.13      53.4      0.12      80.4      0.97      164.0     
715000000           0.96      156.4     0.13      53.9      0.12      80.6      0.97      163.8     
720000000           0.96      156.1     0.13      54.2      0.12      80.9      0.97      163.6     
725000000           0.96      155.8     0.13      54.8      0.12      81.2      0.97      163.4     
730000000           0.96      155.6     0.13      55.3      0.12      81.3      0.97      163.2     
735000000           0.96      155.2     0.13      55.9      0.12      81.3      0.97      163.0     
740000000           0.96      155.0     0.13      56.5      0.13      81.2      0.97      162.8     
745000000           0.96      154.7     0.13      57.1      0.13      81.0      0.97      162.7     
750000000           0.96      154.4     0.13      57.7      0.13      80.6      0.97      162.5     
755000000           0.95      154.1     0.14      58.0      0.13      80.2      0.97      162.3     
760000000           0.95      153.9     0.14      58.5      0.13      79.7      0.97      162.1     
765000000           0.95      153.6     0.14      58.8      0.13      79.2      0.97      161.9     
770000000           0.95      153.4     0.14      58.8      0.13      78.8      0.97      161.7     
775000000           0.95      153.2     0.14      59.0      0.13      78.4      0.97      161.5     
780000000           0.95      153.0     0.14      59.1      0.13      78.1      0.97      161.3     
785000000           0.95      152.9     0.14      59.0      0.13      77.9      0.97      161.1     
790000000           0.94      152.7     0.14      59.0      0.13      77.7      0.97      161.0     
795000000           0.94      152.6     0.14      58.9      0.13      77.8      0.97      160.8     
800000000           0.94      152.4     0.14      58.9      0.13      77.9      0.97      160.6     
805000000           0.94      152.3     0.14      59.1      0.13      78.2      0.97      160.4     
810000000           0.94      152.1     0.14      59.3      0.13      78.5      0.97      160.2     
815000000           0.94      152.0     0.14      59.6      0.13      78.9      0.97      160.0     
820000000           0.94      151.8     0.14      59.9      0.14      79.3      0.97      159.8     
825000000           0.94      151.6     0.14      60.5      0.14      79.7      0.97      159.6     
830000000           0.95      151.3     0.14      61.0      0.14      80.1      0.97      159.4     
835000000           0.95      151.0     0.14      61.6      0.14      80.2      0.97      159.2     
840000000           0.95      150.8     0.14      62.2      0.14      80.3      0.97      159.1     
845000000           0.95      150.5     0.15      62.9      0.15      80.1      0.97      158.9     
850000000           0.95      150.2     0.15      63.5      0.15      79.8      0.97      158.7     
855000000           0.95      149.9     0.15      64.1      0.15      79.4      0.97      158.5     
860000000           0.95      149.6     0.15      64.5      0.15      78.8      0.96      158.3     
865000000           0.95      149.4     0.15      64.7      0.15      78.2      0.96      158.1     
870000000           0.95      149.2     0.16      64.7      0.15      77.5      0.96      157.9     
875000000           0.95      149.0     0.16      64.6      0.15      77.0      0.96      157.7     
880000000           0.95      148.7     0.16      64.4      0.15      76.5      0.96      157.6     
885000000           0.95      148.5     0.16      64.1      0.15      76.1      0.96      157.4     
890000000           0.95      148.3     0.16      63.7      0.15      75.8      0.96      157.3     
895000000           0.95      148.0     0.16      63.4      0.15      74.9      0.95      157.2     
900000000           0.95      147.8     0.16      63.1      0.15      74.4      0.95      157.1     
905000000           0.95      147.5     0.16      63.0      0.15      74.8      0.95      156.9     
910000000           0.95      147.2     0.16      63.2      0.15      74.8      0.95      156.8     
915000000           0.95      147.0     0.16      63.3      0.15      75.2      0.94      156.6     
920000000           0.95      146.7     0.16      63.6      0.15      75.6      0.94      156.4     
925000000           0.95      146.4     0.16      63.9      0.16      76.0      0.94      156.2     
930000000           0.95      146.1     0.16      64.3      0.16      76.4      0.94      156.0     
935000000           0.95      145.7     0.16      64.8      0.16      76.6      0.94      155.8     
940000000           0.95      145.5     0.16      65.3      0.16      76.3      0.94      155.6     
945000000           0.95      145.2     0.16      65.9      0.16      73.0      0.92      156.1     
950000000           0.95      144.9     0.17      66.3      0.16      74.1      0.93      155.7     
955000000           0.95      144.7     0.17      66.6      0.15      73.3      0.92      157.4     
960000000           0.94      144.3     0.17      63.6      0.15      -142.2    1.30      -171.2    
965000000           0.95      144.2     0.17      66.8      0.15      74.9      0.94      157.8     
970000000           0.95      143.9     0.17      66.8      0.14      70.2      0.91      159.2     
975000000           0.95      143.7     0.18      66.5      0.12      69.6      0.92      162.4     
980000000           0.97      143.2     0.21      79.3      2.49      39.9      5.44      42.2      
985000000           0.96      143.1     0.20      73.5      1.76      41.6      3.67      47.3      
