! Bias: Vs=5.00 V; Is=21.1 mA                
#  MHz  S  MA  R 50                
! Freq  S11                S21               S12                S22  
100   0.28659  16.149    31.279  9.062     0.02196  9.414     0.35498  125.520
200   0.32844  -3.863    32.140  -7.090    0.01734  -3.282    0.25837  115.320
300   0.32902  -17.277   32.723  -19.797   0.01403  -22.206   0.21726  102.553
400   0.31928  -28.789   33.574  -30.867   0.01287  -21.109   0.20777  87.603
500   0.31601  -39.610   34.392  -41.584   0.01056  -30.587   0.19351  75.669
600   0.29932  -50.297   35.609  -52.273   0.00969  -35.251   0.17920  62.078
700   0.28723  -59.394   36.628  -62.595   0.00903  -34.504   0.15789  49.305
800   0.27192  -68.601   38.054  -73.333   0.00808  -42.685   0.14907  34.676
900   0.25814  -76.425   39.585  -84.118   0.00785  -36.232   0.12618  22.903
1000  0.24264  -84.747   41.369  -95.486   0.00751  -44.757   0.11335  10.318
1100  0.23666  -92.483   43.435  -106.965  0.00722  -44.682   0.09328  -1.619
1200  0.22491  -98.942   45.480  -119.132  0.00711  -43.735   0.08382  -8.150
1300  0.22885  -101.960  47.547  -131.803  0.00755  -40.032   0.07627  -10.831
1400  0.22874  -106.887  49.784  -144.767  0.00792  -37.251   0.04151  -4.548
1500  0.24632  -114.425  52.125  -158.505  0.00868  -33.985   0.03701  -15.124
1600  0.26051  -127.756  54.375  -172.962  0.00991  -37.893   0.03530  34.362
1700  0.28804  -138.822  56.673  171.450   0.01073  -30.031   0.05895  35.804
1800  0.31676  -154.448  57.958  154.412   0.01171  -37.188   0.05859  41.499
1900  0.34495  -171.494  57.579  137.227   0.01243  -44.987   0.08044  19.578
2000  0.36413  167.657   56.647  120.145   0.01302  -45.675   0.12259  15.872
2100  0.36801  149.179   54.176  102.137   0.01442  -60.004   0.12620  6.784
2200  0.36217  126.701   50.107  85.016    0.01493  -60.517   0.12992  -4.606
2300  0.35952  108.307   45.789  69.534    0.01582  -67.435   0.13369  -18.506
2400  0.35415  87.479    41.679  54.648    0.01647  -69.825   0.13024  -32.485
2500  0.34295  68.344    37.703  39.525    0.01736  -79.089   0.13375  -41.605
2600  0.32471  47.603    33.472  25.879    0.01878  -81.653   0.13719  -57.057
2700  0.30550  27.857    29.579  13.269    0.01968  -88.131   0.13228  -63.812
2800  0.28204  7.704     26.342  1.404     0.02094  -94.027   0.13527  -74.863
2900  0.25151  -14.357   23.421  -9.729    0.02038  -97.963   0.11269  -93.773
3000  0.23097  -31.961   20.814  -20.347   0.02184  -112.161  0.11164  -104.276
3100  0.20478  -50.943   18.500  -30.102   0.02238  -110.969  0.10961  -118.891
3200  0.16481  -68.777   16.676  -38.526   0.02376  -117.374  0.08102  -126.965
3300  0.14265  -85.106   15.333  -46.996   0.02427  -122.608  0.08960  -162.019
3400  0.10948  -105.683  14.161  -55.672   0.02479  -127.696  0.10371  -175.363
3500  0.09570  -133.238  13.119  -63.840   0.02587  -132.423  0.09292  169.636
3600  0.09176  -157.888  12.302  -71.851   0.02669  -140.957  0.10286  156.948
3700  0.09512  176.703   11.589  -80.194   0.02823  -143.163  0.10551  135.770
3800  0.09072  152.966   10.874  -88.744   0.02990  -148.719  0.11414  108.698
3900  0.10901  129.157   10.251  -96.479   0.03018  -158.583  0.14342  98.869
4000  0.12908  107.379   9.787  -103.056   0.03310  -164.234  0.13366  83.240
